! File created by NanoVNA (https://gen111.taobao.com/)
! Start 50000Hz  Stop 1000000Hz   Points 101
# HZ S MA R 50
! S - Parameter data, F S11 S21 (S12 and S22 are invalid)
50000	0.059594996	71.437525530	1.001502622	-51.364171549	1.0	0.0	1.0	0.0
59500	0.170808436	24.307895656	0.959815436	-72.483911019	1.0	0.0	1.0	0.0
69000	0.457549996	-16.631002473	0.798899980	-105.340322712	1.0	0.0	1.0	0.0
78500	0.848751780	-74.039562224	0.415906801	-153.665976913	1.0	0.0	1.0	0.0
88000	0.962010993	-125.687365056	0.093415841	160.224799226	1.0	0.0	1.0	0.0
97500	0.958678301	-164.431811223	0.001597184	66.649368452	1.0	0.0	1.0	0.0
107000	0.948945935	162.170642284	0.003947471	-112.533234248	1.0	0.0	1.0	0.0
116500	0.936595028	128.939290788	0.084467504	-153.207101169	1.0	0.0	1.0	0.0
126000	0.872724672	92.599107338	0.312385498	170.195586299	1.0	0.0	1.0	0.0
135500	0.692153967	54.189669749	0.591302828	135.656224228	1.0	0.0	1.0	0.0
145000	0.466106772	21.711872092	0.789113225	108.222390451	1.0	0.0	1.0	0.0
154500	0.292949762	-0.828057270	0.882767078	88.521900818	1.0	0.0	1.0	0.0
164000	0.190459400	-17.160467020	0.930556719	74.575805009	1.0	0.0	1.0	0.0
173500	0.130034228	-29.910430055	0.954777248	64.479762540	1.0	0.0	1.0	0.0
183000	0.091240337	-40.785716688	0.968730906	56.804836413	1.0	0.0	1.0	0.0
192500	0.064703710	-52.908134207	0.973837149	50.844521996	1.0	0.0	1.0	0.0
202000	0.050269778	-60.274500608	0.981592030	45.942312822	1.0	0.0	1.0	0.0
211500	0.039436502	-70.243302503	0.984526799	41.873365966	1.0	0.0	1.0	0.0
221000	0.031899827	-80.171662064	0.987329455	38.480790015	1.0	0.0	1.0	0.0
230500	0.026542235	-89.102934654	0.988933403	35.439478161	1.0	0.0	1.0	0.0
240000	0.022457187	-97.357374610	0.981763365	32.956335316	1.0	0.0	1.0	0.0
249500	0.020636075	-112.227883106	0.990568648	30.635251999	1.0	0.0	1.0	0.0
259000	0.017886379	-119.484667316	0.991191715	28.582665677	1.0	0.0	1.0	0.0
268500	0.017360104	-126.340871068	0.991760689	26.749717147	1.0	0.0	1.0	0.0
278000	0.016716433	-132.969742443	0.991829884	25.061941154	1.0	0.0	1.0	0.0
287500	0.016269229	-139.333476836	0.990752051	23.617106058	1.0	0.0	1.0	0.0
297000	0.015813713	-146.459013616	0.992311843	22.173318355	1.0	0.0	1.0	0.0
306500	0.015687741	-152.765027990	0.992209089	20.844519461	1.0	0.0	1.0	0.0
316000	0.015331460	-154.708784025	0.992913705	19.642989507	1.0	0.0	1.0	0.0
325500	0.015250354	-159.331691126	0.992694548	18.533302712	1.0	0.0	1.0	0.0
335000	0.015007239	-162.082908499	0.990943818	17.505791438	1.0	0.0	1.0	0.0
344500	0.015057474	-164.441071594	0.993282278	16.483372265	1.0	0.0	1.0	0.0
354000	0.014787212	-168.810504565	0.992806597	15.541239963	1.0	0.0	1.0	0.0
363500	0.015173761	-165.855214776	0.992054939	14.678900423	1.0	0.0	1.0	0.0
373000	0.014709016	-171.060678759	0.992716907	13.846174643	1.0	0.0	1.0	0.0
382500	0.013876090	-173.498383237	0.992208044	13.065494378	1.0	0.0	1.0	0.0
392000	0.013864268	-174.684625139	0.992783136	12.259397384	1.0	0.0	1.0	0.0
401500	0.014142359	-174.084013258	0.991831943	11.513654476	1.0	0.0	1.0	0.0
411000	0.013471610	-177.298155153	0.992524314	10.840181464	1.0	0.0	1.0	0.0
420500	0.013333011	-176.765424246	0.992318998	10.154292707	1.0	0.0	1.0	0.0
430000	0.013171757	-178.403172500	0.992181936	9.517038710	1.0	0.0	1.0	0.0
439500	0.012701847	178.510006540	0.991699005	8.885396792	1.0	0.0	1.0	0.0
449000	0.012407431	178.505837452	0.991321547	8.314412577	1.0	0.0	1.0	0.0
458500	0.012238139	176.087313735	0.992428687	7.692783612	1.0	0.0	1.0	0.0
468000	0.012431280	179.713106933	0.991094326	7.136527279	1.0	0.0	1.0	0.0
477500	0.011227789	177.234434539	0.991571429	6.590528279	1.0	0.0	1.0	0.0
487000	0.011689563	175.537240215	0.991424532	6.036158290	1.0	0.0	1.0	0.0
496500	0.010587408	179.559029407	0.991362592	5.552904203	1.0	0.0	1.0	0.0
506000	0.010426673	179.520886206	0.990565393	5.065969314	1.0	0.0	1.0	0.0
515500	0.010454722	178.962996500	0.990407611	4.612755800	1.0	0.0	1.0	0.0
525000	0.010234948	176.364581490	0.990871937	4.082741055	1.0	0.0	1.0	0.0
534500	0.010318138	175.961205924	0.989734664	3.600487600	1.0	0.0	1.0	0.0
544000	0.009028830	179.562238583	0.989999153	3.128356256	1.0	0.0	1.0	0.0
553500	0.008713110	173.603970312	0.989710787	2.722934104	1.0	0.0	1.0	0.0
563000	0.008407673	178.128050169	0.989240552	2.274502262	1.0	0.0	1.0	0.0
572500	0.008122738	-178.984199385	0.989513842	1.863830751	1.0	0.0	1.0	0.0
582000	0.008304101	-178.874959708	0.988801364	1.445160760	1.0	0.0	1.0	0.0
591500	0.007276518	178.823949324	0.988890347	1.019222881	1.0	0.0	1.0	0.0
601000	0.006694842	-179.005059602	0.988315726	0.665993659	1.0	0.0	1.0	0.0
610500	0.006624162	-176.056696980	0.988453025	0.272369530	1.0	0.0	1.0	0.0
620000	0.006656425	-177.887632091	0.988297870	-0.170300510	1.0	0.0	1.0	0.0
629500	0.005832080	-174.610827571	0.988237150	-0.563383526	1.0	0.0	1.0	0.0
639000	0.005401408	-171.380232311	0.987821278	-0.889856604	1.0	0.0	1.0	0.0
648500	0.005830823	-164.704940689	0.987078728	-1.306429750	1.0	0.0	1.0	0.0
658000	0.004715485	-161.410715554	0.987264396	-1.672432019	1.0	0.0	1.0	0.0
667500	0.004381722	-155.598618369	0.986716616	-1.983236509	1.0	0.0	1.0	0.0
677000	0.004888410	-148.277275455	0.986457270	-2.335730697	1.0	0.0	1.0	0.0
686500	0.004471704	-146.921780640	0.986591085	-2.700756022	1.0	0.0	1.0	0.0
696000	0.004794393	-146.802532110	0.986700646	-3.066499683	1.0	0.0	1.0	0.0
705500	0.004152783	-133.188481727	0.986936002	-3.415541001	1.0	0.0	1.0	0.0
715000	0.004024270	-125.558404390	0.986164062	-3.760844020	1.0	0.0	1.0	0.0
724500	0.004151723	-117.015816708	0.985495639	-4.094250260	1.0	0.0	1.0	0.0
734000	0.004332883	-112.054067964	0.985495411	-4.444300701	1.0	0.0	1.0	0.0
743500	0.003980012	-106.157714622	0.985667645	-4.777418850	1.0	0.0	1.0	0.0
753000	0.004453817	-101.677083021	0.985575560	-5.101801020	1.0	0.0	1.0	0.0
762500	0.005476312	-90.138125736	0.985099112	-5.400064035	1.0	0.0	1.0	0.0
772000	0.005734904	-95.185261632	0.984596566	-5.711486980	1.0	0.0	1.0	0.0
781500	0.005507102	-83.780235472	0.984710038	-5.990612744	1.0	0.0	1.0	0.0
791000	0.006398291	-82.263930931	0.983698573	-6.341353591	1.0	0.0	1.0	0.0
800500	0.006417465	-80.617137055	0.983894318	-6.654991521	1.0	0.0	1.0	0.0
810000	0.007631704	-81.555035362	0.984228618	-6.961976921	1.0	0.0	1.0	0.0
819500	0.008412848	-75.982831417	0.983565106	-7.271275107	1.0	0.0	1.0	0.0
829000	0.008888692	-71.206212715	0.982793282	-7.551480133	1.0	0.0	1.0	0.0
838500	0.009403384	-75.831396293	0.983840432	-7.885978984	1.0	0.0	1.0	0.0
848000	0.009718672	-67.949540762	0.983298344	-8.143204844	1.0	0.0	1.0	0.0
857500	0.010980974	-71.344656282	0.982674745	-8.476090182	1.0	0.0	1.0	0.0
867000	0.011032720	-72.515413972	0.981835067	-8.791854204	1.0	0.0	1.0	0.0
876500	0.011057242	-61.730122736	0.982383568	-9.050218395	1.0	0.0	1.0	0.0
886000	0.012252347	-66.716912222	0.981826652	-9.376060067	1.0	0.0	1.0	0.0
895500	0.015299500	-61.151344051	0.981072733	-9.689772486	1.0	0.0	1.0	0.0
905000	0.015741463	-66.758556442	0.981090841	-9.954009602	1.0	0.0	1.0	0.0
914500	0.015478268	-66.849431822	0.981692133	-10.253647717	1.0	0.0	1.0	0.0
924000	0.016399505	-65.589829196	0.980373127	-10.525425585	1.0	0.0	1.0	0.0
933500	0.016499080	-67.988981627	0.980859956	-10.807126870	1.0	0.0	1.0	0.0
943000	0.017370349	-64.676674237	0.979948271	-11.107631455	1.0	0.0	1.0	0.0
952500	0.018341550	-67.607535164	0.979555398	-11.396410661	1.0	0.0	1.0	0.0
962000	0.019485288	-65.692319975	0.979173045	-11.650414746	1.0	0.0	1.0	0.0
971500	0.020213217	-66.193746952	0.979229927	-11.916551276	1.0	0.0	1.0	0.0
981000	0.021002388	-65.775413661	0.979181581	-12.262872221	1.0	0.0	1.0	0.0
990500	0.021947358	-65.926698927	0.978370842	-12.507191538	1.0	0.0	1.0	0.0
1000000	0.023116343	-67.423050390	0.978633056	-12.765295472	1.0	0.0	1.0	0.0
