! File created by NanoVNA (https://gen111.taobao.com/)
! Start 50000Hz  Stop 1000000Hz   Points 101
# HZ S MA R 50
! S - Parameter data, F S11 S21 (S12 and S22 are invalid)
50000	0.980192196	-40.654730746	0.198689077	141.422866472	1.0	0.0	1.0	0.0
59500	0.958370378	-50.292954974	0.282299928	135.293426021	1.0	0.0	1.0	0.0
69000	0.922618677	-58.941051072	0.365846679	126.274861660	1.0	0.0	1.0	0.0
78500	0.869195982	-67.941821092	0.452004705	117.494978696	1.0	0.0	1.0	0.0
88000	0.815548680	-76.543608363	0.540228378	108.230120230	1.0	0.0	1.0	0.0
97500	0.755390320	-84.820209427	0.629042195	100.841096879	1.0	0.0	1.0	0.0
107000	0.692217804	-92.320348379	0.700430611	92.548124603	1.0	0.0	1.0	0.0
116500	0.630310184	-99.249170733	0.767329123	85.431219145	1.0	0.0	1.0	0.0
126000	0.571228327	-105.511821207	0.821896628	78.623078729	1.0	0.0	1.0	0.0
135500	0.516276058	-111.130610957	0.863932191	72.521589782	1.0	0.0	1.0	0.0
145000	0.469530942	-116.343853227	0.901541659	67.450365914	1.0	0.0	1.0	0.0
154500	0.423520864	-120.902336742	0.921832808	62.171860006	1.0	0.0	1.0	0.0
164000	0.383640436	-125.004534386	0.942554144	57.830943614	1.0	0.0	1.0	0.0
173500	0.348863844	-128.824431550	0.956290158	53.893283657	1.0	0.0	1.0	0.0
183000	0.317854956	-132.120910221	0.967471007	50.423992192	1.0	0.0	1.0	0.0
192500	0.288178305	-134.982200512	0.978518015	47.425874635	1.0	0.0	1.0	0.0
202000	0.266375622	-138.194704996	0.982576806	44.520265510	1.0	0.0	1.0	0.0
211500	0.244636559	-140.971185300	0.987409170	41.963977418	1.0	0.0	1.0	0.0
221000	0.226096759	-143.498961007	0.992054907	39.704178835	1.0	0.0	1.0	0.0
230500	0.209294344	-145.938883685	0.994219559	37.585378389	1.0	0.0	1.0	0.0
240000	0.195219311	-148.553884184	0.996585991	35.522417162	1.0	0.0	1.0	0.0
249500	0.180543987	-150.351525125	0.997678069	33.882084323	1.0	0.0	1.0	0.0
259000	0.168592037	-152.629603930	0.999471949	32.225510002	1.0	0.0	1.0	0.0
268500	0.157634199	-154.694917520	0.999709017	30.754525011	1.0	0.0	1.0	0.0
278000	0.148341142	-156.678892152	1.000400440	29.350007727	1.0	0.0	1.0	0.0
287500	0.138189661	-158.543718295	1.002605276	28.055049629	1.0	0.0	1.0	0.0
297000	0.131092428	-160.824937534	1.000044413	26.852064925	1.0	0.0	1.0	0.0
306500	0.124087946	-162.951001707	1.000563232	25.718834217	1.0	0.0	1.0	0.0
316000	0.116876112	-164.626216987	1.000691863	24.683408335	1.0	0.0	1.0	0.0
325500	0.111596923	-166.670448533	1.000554293	23.684790700	1.0	0.0	1.0	0.0
335000	0.105386943	-168.914621421	0.998175952	22.700510495	1.0	0.0	1.0	0.0
344500	0.100827682	-170.751201203	0.999751096	21.794972738	1.0	0.0	1.0	0.0
354000	0.095970469	-172.666551605	0.999414306	20.932729127	1.0	0.0	1.0	0.0
363500	0.091410134	-174.709180288	0.999541684	20.100626159	1.0	0.0	1.0	0.0
373000	0.088096261	-176.350956476	0.999111869	19.401578749	1.0	0.0	1.0	0.0
382500	0.085257022	-178.793724731	0.998247654	18.627840355	1.0	0.0	1.0	0.0
392000	0.081657843	179.247896352	0.998343044	17.925721203	1.0	0.0	1.0	0.0
401500	0.078328868	176.909116682	0.998715782	17.243861338	1.0	0.0	1.0	0.0
411000	0.075283433	175.110722338	0.997799727	16.603418850	1.0	0.0	1.0	0.0
420500	0.073086000	173.151037582	0.997303355	16.004310150	1.0	0.0	1.0	0.0
430000	0.070882978	170.847857442	0.996928601	15.411646694	1.0	0.0	1.0	0.0
439500	0.069262309	168.380747865	0.996949382	14.822257958	1.0	0.0	1.0	0.0
449000	0.067225399	166.816694027	0.997101962	14.325542039	1.0	0.0	1.0	0.0
458500	0.065131734	164.682909359	0.996827673	13.752642304	1.0	0.0	1.0	0.0
468000	0.064429300	162.427208814	0.995507618	13.254805104	1.0	0.0	1.0	0.0
477500	0.063082553	160.643311431	0.994790945	12.765827234	1.0	0.0	1.0	0.0
487000	0.061758593	158.231272416	0.994853793	12.281981784	1.0	0.0	1.0	0.0
496500	0.060306574	156.050352130	0.994502233	11.853569880	1.0	0.0	1.0	0.0
506000	0.059775979	154.066834386	0.994350397	11.380871961	1.0	0.0	1.0	0.0
515500	0.058537443	151.952023197	0.993861791	10.933425545	1.0	0.0	1.0	0.0
525000	0.058199000	149.866936816	0.992734737	10.503365972	1.0	0.0	1.0	0.0
534500	0.057450176	147.812619380	0.993209374	10.101366674	1.0	0.0	1.0	0.0
544000	0.056764216	145.677656937	0.992774730	9.708937261	1.0	0.0	1.0	0.0
553500	0.056883494	143.894947737	0.992002909	9.338269093	1.0	0.0	1.0	0.0
563000	0.056389861	142.759485487	0.991507232	8.937122306	1.0	0.0	1.0	0.0
572500	0.056148425	140.446581565	0.991645616	8.579448799	1.0	0.0	1.0	0.0
582000	0.055910223	138.419208159	0.990792658	8.206218146	1.0	0.0	1.0	0.0
591500	0.055686422	136.548978067	0.990888074	7.850729192	1.0	0.0	1.0	0.0
601000	0.055446962	134.718524597	0.990708568	7.548373543	1.0	0.0	1.0	0.0
610500	0.055665006	133.398302775	0.990313127	7.229434097	1.0	0.0	1.0	0.0
620000	0.055559261	132.313238915	0.989567857	6.874314535	1.0	0.0	1.0	0.0
629500	0.056093675	130.112412446	0.989344652	6.575803196	1.0	0.0	1.0	0.0
639000	0.055950259	128.718004694	0.988942788	6.205504671	1.0	0.0	1.0	0.0
648500	0.055547866	126.101403784	0.988742367	5.904680590	1.0	0.0	1.0	0.0
658000	0.056431235	125.567789955	0.988615417	5.591707191	1.0	0.0	1.0	0.0
667500	0.056327349	124.015314159	0.987781743	5.326592856	1.0	0.0	1.0	0.0
677000	0.056322667	122.534084907	0.987217798	5.071104696	1.0	0.0	1.0	0.0
686500	0.057236607	120.989744485	0.987299001	4.738614605	1.0	0.0	1.0	0.0
696000	0.057786087	120.312076152	0.987180101	4.463869867	1.0	0.0	1.0	0.0
705500	0.057819552	118.475243519	0.986643543	4.203780022	1.0	0.0	1.0	0.0
715000	0.057783443	117.455145993	0.985964916	3.944935495	1.0	0.0	1.0	0.0
724500	0.058472316	115.854717865	0.985723251	3.649696681	1.0	0.0	1.0	0.0
734000	0.058795397	114.938838280	0.985099763	3.446251931	1.0	0.0	1.0	0.0
743500	0.059604270	114.477674433	0.985110218	3.148836186	1.0	0.0	1.0	0.0
753000	0.059796122	112.852949677	0.984460340	2.906376975	1.0	0.0	1.0	0.0
762500	0.060399305	111.851895134	0.984133564	2.686554884	1.0	0.0	1.0	0.0
772000	0.060989887	110.874053723	0.983806194	2.427783899	1.0	0.0	1.0	0.0
781500	0.061327796	109.974725711	0.983884339	2.177601425	1.0	0.0	1.0	0.0
791000	0.061592382	108.888390797	0.982920502	1.964524632	1.0	0.0	1.0	0.0
800500	0.062180774	107.630271539	0.982507399	1.729710065	1.0	0.0	1.0	0.0
810000	0.063016680	106.844236758	0.982592710	1.492855854	1.0	0.0	1.0	0.0
819500	0.063565287	106.383571069	0.981877255	1.286143583	1.0	0.0	1.0	0.0
829000	0.063740808	105.518892109	0.981779198	1.052461043	1.0	0.0	1.0	0.0
838500	0.064516415	104.712451394	0.981493097	0.823928003	1.0	0.0	1.0	0.0
848000	0.065157254	103.907292675	0.980605268	0.622850154	1.0	0.0	1.0	0.0
857500	0.065515972	102.955395601	0.980372085	0.384442739	1.0	0.0	1.0	0.0
867000	0.066388720	101.622892055	0.979988674	0.186405240	1.0	0.0	1.0	0.0
876500	0.066829842	101.184495138	0.979798595	-0.029672568	1.0	0.0	1.0	0.0
886000	0.067417645	100.598736892	0.979092570	-0.216682440	1.0	0.0	1.0	0.0
895500	0.067956136	99.697792188	0.978505506	-0.429484210	1.0	0.0	1.0	0.0
905000	0.068998624	99.251857730	0.978839016	-0.614502902	1.0	0.0	1.0	0.0
914500	0.069120305	98.581393503	0.978071455	-0.810888702	1.0	0.0	1.0	0.0
924000	0.070221409	97.888365862	0.977402389	-0.981194339	1.0	0.0	1.0	0.0
933500	0.070316892	97.340866946	0.976844489	-1.182060368	1.0	0.0	1.0	0.0
943000	0.070931931	96.757634910	0.976852234	-1.405198619	1.0	0.0	1.0	0.0
952500	0.071997717	95.875081784	0.976571269	-1.585389536	1.0	0.0	1.0	0.0
962000	0.072389599	95.680539542	0.975862122	-1.760662332	1.0	0.0	1.0	0.0
971500	0.072812410	95.070724001	0.976255906	-1.956828602	1.0	0.0	1.0	0.0
981000	0.073666977	94.657888044	0.975787955	-2.109213017	1.0	0.0	1.0	0.0
990500	0.074330005	93.820554640	0.974535613	-2.313267313	1.0	0.0	1.0	0.0
1000000	0.075162756	93.332501343	0.974818351	-2.502988941	1.0	0.0	1.0	0.0
