! File created by NanoVNA (https://gen111.taobao.com/)
! Start 50000Hz  Stop 1000000Hz   Points 101
# HZ S MA R 50
! S - Parameter data, F S11 S21 (S12 and S22 are invalid)
50000	0.073204327	-167.306218961	1.007676837	-20.108264018	1.0	0.0	1.0	0.0
59500	0.089614654	174.207731720	0.999603956	-24.171306637	1.0	0.0	1.0	0.0
69000	0.126390888	165.525470200	1.013045500	-28.450514518	1.0	0.0	1.0	0.0
78500	0.142070141	157.408314878	1.004142835	-32.713641495	1.0	0.0	1.0	0.0
88000	0.175665511	150.579120544	0.999789562	-37.178434274	1.0	0.0	1.0	0.0
97500	0.218372021	145.283061106	0.980167489	-41.742746237	1.0	0.0	1.0	0.0
107000	0.248812170	138.738702965	0.985279200	-46.560261861	1.0	0.0	1.0	0.0
116500	0.288590409	133.582819839	0.970425726	-51.385276573	1.0	0.0	1.0	0.0
126000	0.330390148	128.394479856	0.956868332	-56.335051732	1.0	0.0	1.0	0.0
135500	0.372699838	123.336232680	0.938764693	-61.333400486	1.0	0.0	1.0	0.0
145000	0.424658298	119.395306969	0.923067836	-66.428374875	1.0	0.0	1.0	0.0
154500	0.459508875	113.811800430	0.888871098	-71.389362641	1.0	0.0	1.0	0.0
164000	0.502503704	109.330551030	0.857665952	-76.297032688	1.0	0.0	1.0	0.0
173500	0.543014829	104.950221605	0.823492903	-81.113558510	1.0	0.0	1.0	0.0
183000	0.580615453	100.454155556	0.787376311	-85.786696922	1.0	0.0	1.0	0.0
192500	0.622181774	96.626659817	0.746423640	-90.328231121	1.0	0.0	1.0	0.0
202000	0.651663300	92.340337177	0.712689230	-94.581521729	1.0	0.0	1.0	0.0
211500	0.683454500	88.547875520	0.674413581	-98.738489036	1.0	0.0	1.0	0.0
221000	0.712435956	84.887006650	0.636467505	-102.677221619	1.0	0.0	1.0	0.0
230500	0.737616369	81.334845719	0.600451522	-106.286244273	1.0	0.0	1.0	0.0
240000	0.761179356	78.063874656	0.564261133	-109.900576371	1.0	0.0	1.0	0.0
249500	0.782730607	74.938221110	0.531070200	-112.941133645	1.0	0.0	1.0	0.0
259000	0.801402034	71.959383468	0.499293663	-115.974639351	1.0	0.0	1.0	0.0
268500	0.817755077	69.137933336	0.469629328	-118.846657141	1.0	0.0	1.0	0.0
278000	0.832487423	66.581598547	0.440642133	-121.398733220	1.0	0.0	1.0	0.0
287500	0.846306244	64.213932597	0.413910664	-123.823703015	1.0	0.0	1.0	0.0
297000	0.857025302	61.760091801	0.390010127	-126.218082098	1.0	0.0	1.0	0.0
306500	0.867919755	59.498417076	0.367214153	-128.341114567	1.0	0.0	1.0	0.0
316000	0.876792546	57.464962022	0.345923212	-130.360669568	1.0	0.0	1.0	0.0
325500	0.884610708	55.491415954	0.325505435	-132.272814897	1.0	0.0	1.0	0.0
335000	0.890724169	53.642409888	0.306824532	-134.039017245	1.0	0.0	1.0	0.0
344500	0.898331071	51.844988106	0.289308584	-135.801615634	1.0	0.0	1.0	0.0
354000	0.903802943	50.201545184	0.273664216	-137.316193689	1.0	0.0	1.0	0.0
363500	0.908436403	48.653921554	0.258384759	-138.876172212	1.0	0.0	1.0	0.0
373000	0.912804575	47.117639549	0.244551399	-140.129042126	1.0	0.0	1.0	0.0
382500	0.916935208	45.657967579	0.230906664	-141.611304302	1.0	0.0	1.0	0.0
392000	0.920738146	44.390852878	0.218769620	-142.826593530	1.0	0.0	1.0	0.0
401500	0.923777133	43.128233985	0.207192833	-144.040934431	1.0	0.0	1.0	0.0
411000	0.927672623	41.884431352	0.196571027	-145.181071329	1.0	0.0	1.0	0.0
420500	0.929086863	40.705190849	0.186727133	-146.293536921	1.0	0.0	1.0	0.0
430000	0.931625027	39.628647396	0.176969443	-147.300605047	1.0	0.0	1.0	0.0
439500	0.933590692	38.564763286	0.168210672	-148.285635788	1.0	0.0	1.0	0.0
449000	0.935935056	37.502107979	0.159536313	-149.262408045	1.0	0.0	1.0	0.0
458500	0.938187194	36.640099099	0.152052393	-150.193833593	1.0	0.0	1.0	0.0
468000	0.938508068	35.686720153	0.144605553	-150.978540516	1.0	0.0	1.0	0.0
477500	0.940873512	34.706843745	0.137404747	-151.888412679	1.0	0.0	1.0	0.0
487000	0.942403182	33.886422688	0.131205395	-152.858944488	1.0	0.0	1.0	0.0
496500	0.943826206	33.058401945	0.124996104	-153.517481076	1.0	0.0	1.0	0.0
506000	0.944444923	32.353563765	0.118524541	-154.271249927	1.0	0.0	1.0	0.0
515500	0.946614107	31.644022106	0.113865995	-154.799100680	1.0	0.0	1.0	0.0
525000	0.947365893	30.897714479	0.108245317	-155.355514752	1.0	0.0	1.0	0.0
534500	0.948269480	30.174111045	0.103383289	-155.906103854	1.0	0.0	1.0	0.0
544000	0.948306138	29.497227973	0.099010962	-156.573435752	1.0	0.0	1.0	0.0
553500	0.949730764	28.863073786	0.094224226	-157.702920096	1.0	0.0	1.0	0.0
563000	0.950136738	28.170339511	0.090249111	-157.957916245	1.0	0.0	1.0	0.0
572500	0.951008213	27.555366180	0.085698621	-158.424446627	1.0	0.0	1.0	0.0
582000	0.951997643	26.952841706	0.081948280	-158.731746995	1.0	0.0	1.0	0.0
591500	0.952377510	26.337105167	0.078526277	-159.654894418	1.0	0.0	1.0	0.0
601000	0.952145210	25.778059494	0.075148157	-160.176946108	1.0	0.0	1.0	0.0
610500	0.953709893	25.188463448	0.071575585	-160.610505818	1.0	0.0	1.0	0.0
620000	0.953974200	24.682772303	0.068270561	-161.045049284	1.0	0.0	1.0	0.0
629500	0.954448190	24.205566826	0.065548774	-161.323360688	1.0	0.0	1.0	0.0
639000	0.955121594	23.680998838	0.062401185	-161.673237636	1.0	0.0	1.0	0.0
648500	0.955051439	23.230228096	0.059833144	-162.394291029	1.0	0.0	1.0	0.0
658000	0.955419930	22.727247172	0.057574804	-162.418051528	1.0	0.0	1.0	0.0
667500	0.956317339	22.289041059	0.054771802	-164.025465989	1.0	0.0	1.0	0.0
677000	0.956397400	21.834945328	0.052468653	-163.896597455	1.0	0.0	1.0	0.0
686500	0.956517333	21.401715428	0.049567250	-163.841347826	1.0	0.0	1.0	0.0
696000	0.956628570	20.997696925	0.047718899	-164.271547887	1.0	0.0	1.0	0.0
705500	0.957662857	20.560558592	0.045622750	-164.465754755	1.0	0.0	1.0	0.0
715000	0.958120470	20.191862948	0.043784060	-164.858625206	1.0	0.0	1.0	0.0
724500	0.958149880	19.825534062	0.042021594	-165.359758807	1.0	0.0	1.0	0.0
734000	0.958099182	19.373468183	0.039925312	-166.028266745	1.0	0.0	1.0	0.0
743500	0.959164533	19.010784747	0.038081435	-165.848716627	1.0	0.0	1.0	0.0
753000	0.958999391	18.657734954	0.036331945	-165.939331314	1.0	0.0	1.0	0.0
762500	0.959682976	18.289619163	0.035119086	-166.344644102	1.0	0.0	1.0	0.0
772000	0.959526497	17.953273040	0.032927078	-166.376388002	1.0	0.0	1.0	0.0
781500	0.960481261	17.595804137	0.031787426	-166.901022939	1.0	0.0	1.0	0.0
791000	0.960612385	17.228454692	0.030255854	-166.806546174	1.0	0.0	1.0	0.0
800500	0.961065882	16.915453450	0.028429738	-167.112054020	1.0	0.0	1.0	0.0
810000	0.961329926	16.521601019	0.027326719	-167.336897259	1.0	0.0	1.0	0.0
819500	0.961542219	16.238934321	0.026286500	-167.712524405	1.0	0.0	1.0	0.0
829000	0.961426852	15.948477219	0.024937323	-168.034651456	1.0	0.0	1.0	0.0
838500	0.961358508	15.625542584	0.023409832	-168.447172001	1.0	0.0	1.0	0.0
848000	0.962554660	15.351184103	0.022475965	-168.033481362	1.0	0.0	1.0	0.0
857500	0.962710697	15.039461137	0.021521195	-167.030801168	1.0	0.0	1.0	0.0
867000	0.962647434	14.749507122	0.020879090	-166.700576005	1.0	0.0	1.0	0.0
876500	0.963843075	14.511239540	0.019267304	-167.572942513	1.0	0.0	1.0	0.0
886000	0.962911273	14.167829437	0.017902178	-167.523377131	1.0	0.0	1.0	0.0
895500	0.964186386	13.872680395	0.016818595	-166.051898651	1.0	0.0	1.0	0.0
905000	0.963929808	13.597372082	0.016858493	-167.465481057	1.0	0.0	1.0	0.0
914500	0.964182270	13.336640572	0.015040206	-169.169296739	1.0	0.0	1.0	0.0
924000	0.964164835	13.047467679	0.014375563	-167.276911472	1.0	0.0	1.0	0.0
933500	0.965023682	12.795929296	0.013743941	-166.971807907	1.0	0.0	1.0	0.0
943000	0.965333795	12.521133369	0.012443963	-167.438592012	1.0	0.0	1.0	0.0
952500	0.964841627	12.266299094	0.011379907	-169.179778191	1.0	0.0	1.0	0.0
962000	0.966240410	12.104012893	0.010793240	-169.383695705	1.0	0.0	1.0	0.0
971500	0.965965264	11.863990851	0.009937492	-168.223847441	1.0	0.0	1.0	0.0
981000	0.966098750	11.589601806	0.008976436	-163.894361968	1.0	0.0	1.0	0.0
990500	0.967000655	11.331436691	0.008960654	-164.794557336	1.0	0.0	1.0	0.0
1000000	0.967515332	11.118593571	0.007499135	-166.058836538	1.0	0.0	1.0	0.0
