! File created by NanoVNA (https://gen111.taobao.com/)
! Start 50000Hz  Stop 1000000Hz   Points 101
# HZ S MA R 50
! S - Parameter data, F S11 S21 (S12 and S22 are invalid)
50000	0.845064778	-69.789803567	0.533756139	24.241358101	1.0	0.0	1.0	0.0
59500	0.786711171	-81.016979621	0.588486642	13.714331075	1.0	0.0	1.0	0.0
69000	0.733569989	-92.612830314	0.649923818	3.825068426	1.0	0.0	1.0	0.0
78500	0.699931614	-101.732511485	0.709474502	-5.708082391	1.0	0.0	1.0	0.0
88000	0.649456407	-111.669224246	0.768019103	-15.865172856	1.0	0.0	1.0	0.0
97500	0.599760897	-120.660249968	0.822294519	-26.032789127	1.0	0.0	1.0	0.0
107000	0.529003912	-130.655956037	0.879965292	-36.881703959	1.0	0.0	1.0	0.0
116500	0.445665867	-141.003921504	0.930240845	-48.447995139	1.0	0.0	1.0	0.0
126000	0.337730102	-151.505580536	0.968633468	-61.072092474	1.0	0.0	1.0	0.0
135500	0.200817154	-162.197466403	0.989592331	-74.646805213	1.0	0.0	1.0	0.0
145000	0.029427615	-145.358499118	0.985893999	-89.102535887	1.0	0.0	1.0	0.0
154500	0.162571833	-20.819954800	0.939901433	-103.719826027	1.0	0.0	1.0	0.0
164000	0.359173688	-32.568136455	0.867733924	-117.995399356	1.0	0.0	1.0	0.0
173500	0.534087377	-46.151224125	0.774778342	-131.064614176	1.0	0.0	1.0	0.0
183000	0.675103399	-58.788102615	0.677855204	-142.715602791	1.0	0.0	1.0	0.0
192500	0.781959196	-69.740785854	0.581995180	-153.029339920	1.0	0.0	1.0	0.0
202000	0.851936174	-79.326671723	0.501541515	-161.645415471	1.0	0.0	1.0	0.0
211500	0.901698828	-87.450559668	0.430869108	-169.223449830	1.0	0.0	1.0	0.0
221000	0.935291530	-94.225197742	0.372220398	-175.775808154	1.0	0.0	1.0	0.0
230500	0.959091124	-100.118701731	0.321674518	178.406043673	1.0	0.0	1.0	0.0
240000	0.974678186	-105.528302941	0.280386822	173.419440826	1.0	0.0	1.0	0.0
249500	0.985282200	-109.671931300	0.243850204	168.708372545	1.0	0.0	1.0	0.0
259000	0.993279843	-113.608033425	0.214838877	164.454059991	1.0	0.0	1.0	0.0
268500	1.000217819	-117.121647334	0.189009426	160.834803420	1.0	0.0	1.0	0.0
278000	1.003577449	-120.356356211	0.167704700	157.213489794	1.0	0.0	1.0	0.0
287500	1.005297714	-123.217103231	0.149007466	154.150539201	1.0	0.0	1.0	0.0
297000	1.009010670	-125.907522068	0.132676013	151.124443935	1.0	0.0	1.0	0.0
306500	1.010753538	-128.392941582	0.119144179	148.222464986	1.0	0.0	1.0	0.0
316000	1.011983781	-130.641726255	0.107065865	145.429173733	1.0	0.0	1.0	0.0
325500	1.012789767	-132.809035793	0.097324178	142.853201932	1.0	0.0	1.0	0.0
335000	1.010756325	-134.684148801	0.087722590	140.732132014	1.0	0.0	1.0	0.0
344500	1.014205475	-136.592732699	0.080322242	138.294578248	1.0	0.0	1.0	0.0
354000	1.013620897	-138.328933971	0.073520671	136.118910645	1.0	0.0	1.0	0.0
363500	1.013905947	-139.928614086	0.067568369	133.999225175	1.0	0.0	1.0	0.0
373000	1.013137418	-141.521109518	0.062516370	132.379602450	1.0	0.0	1.0	0.0
382500	1.014887975	-143.002364827	0.057715573	129.873497361	1.0	0.0	1.0	0.0
392000	1.014380438	-144.449930079	0.053803529	128.065934379	1.0	0.0	1.0	0.0
401500	1.014058448	-145.794704512	0.049672188	126.400644598	1.0	0.0	1.0	0.0
411000	1.013344343	-147.071992568	0.046649992	124.353062041	1.0	0.0	1.0	0.0
420500	1.013595881	-148.334928569	0.043002498	122.629656896	1.0	0.0	1.0	0.0
430000	1.011645945	-149.599922094	0.041161326	121.154027990	1.0	0.0	1.0	0.0
439500	1.009449473	-150.824442098	0.039156665	118.416462866	1.0	0.0	1.0	0.0
449000	1.001566989	-151.878729064	0.035828327	116.063574059	1.0	0.0	1.0	0.0
458500	0.997891473	-152.155291393	0.033867749	115.578823655	1.0	0.0	1.0	0.0
468000	1.007725415	-153.037984749	0.032650602	114.839520242	1.0	0.0	1.0	0.0
477500	1.009988200	-154.123621420	0.031430906	113.959205871	1.0	0.0	1.0	0.0
487000	1.010555058	-155.147702675	0.030417892	111.793689150	1.0	0.0	1.0	0.0
496500	1.011341507	-156.093584488	0.028721079	111.338812923	1.0	0.0	1.0	0.0
506000	1.010138357	-157.067765319	0.027502372	108.192589380	1.0	0.0	1.0	0.0
515500	1.010154480	-157.855876345	0.027503982	108.412581294	1.0	0.0	1.0	0.0
525000	1.010159024	-158.728987071	0.025973364	105.901510097	1.0	0.0	1.0	0.0
534500	1.009596159	-159.520995674	0.025798396	105.259941220	1.0	0.0	1.0	0.0
544000	1.009381198	-160.326332455	0.025462918	103.024073419	1.0	0.0	1.0	0.0
553500	1.008897206	-161.106695151	0.024766903	102.497677878	1.0	0.0	1.0	0.0
563000	1.007627959	-161.821678486	0.024230045	103.404992622	1.0	0.0	1.0	0.0
572500	1.007039507	-162.543149571	0.024298507	99.054007076	1.0	0.0	1.0	0.0
582000	1.006989910	-163.229013794	0.024016850	97.702086784	1.0	0.0	1.0	0.0
591500	1.005925775	-163.935779615	0.023436735	97.600739954	1.0	0.0	1.0	0.0
601000	1.004807276	-164.563275542	0.022634120	96.018192245	1.0	0.0	1.0	0.0
610500	1.004857377	-165.254799312	0.023398513	95.973702941	1.0	0.0	1.0	0.0
620000	1.004010036	-165.847334574	0.023059408	92.437610225	1.0	0.0	1.0	0.0
629500	1.003395509	-166.519912730	0.022947991	93.414231416	1.0	0.0	1.0	0.0
639000	1.002481918	-167.109508607	0.022684659	92.738875233	1.0	0.0	1.0	0.0
648500	1.001025761	-167.675748397	0.022524255	92.759286248	1.0	0.0	1.0	0.0
658000	1.002560218	-168.321091423	0.023666676	88.877460734	1.0	0.0	1.0	0.0
667500	1.000839709	-168.850043288	0.022918607	87.210086051	1.0	0.0	1.0	0.0
677000	1.000439189	-169.398982696	0.022650022	87.000918405	1.0	0.0	1.0	0.0
686500	0.999596816	-169.999427599	0.022465662	87.652751911	1.0	0.0	1.0	0.0
696000	0.998408743	-170.529684079	0.022639194	88.376305661	1.0	0.0	1.0	0.0
705500	0.997663788	-171.031741163	0.023040513	86.729443413	1.0	0.0	1.0	0.0
715000	0.997147724	-171.504664175	0.022985007	85.788088715	1.0	0.0	1.0	0.0
724500	0.996846318	-172.077236803	0.023486951	84.899779635	1.0	0.0	1.0	0.0
734000	0.995434519	-172.636286282	0.024112195	83.563100469	1.0	0.0	1.0	0.0
743500	0.994366752	-173.046383459	0.024095878	83.226533474	1.0	0.0	1.0	0.0
753000	0.994785915	-173.515391770	0.024195022	82.362569422	1.0	0.0	1.0	0.0
762500	0.994848900	-174.022306507	0.024338867	83.754251862	1.0	0.0	1.0	0.0
772000	0.993221511	-174.478535859	0.024241241	81.188171535	1.0	0.0	1.0	0.0
781500	0.992641731	-174.974223825	0.024182099	79.768552539	1.0	0.0	1.0	0.0
791000	0.992520682	-175.371935380	0.025189318	80.326115342	1.0	0.0	1.0	0.0
800500	0.990852788	-175.858038099	0.024578023	82.300005923	1.0	0.0	1.0	0.0
810000	0.989981409	-176.269512655	0.025803672	74.936364109	1.0	0.0	1.0	0.0
819500	0.989489308	-176.738878487	0.025349264	76.796434923	1.0	0.0	1.0	0.0
829000	0.989069777	-177.170326059	0.025954348	74.254130645	1.0	0.0	1.0	0.0
838500	0.987625662	-177.597094574	0.025409340	76.857423104	1.0	0.0	1.0	0.0
848000	0.987135598	-178.080953402	0.026850515	76.638032987	1.0	0.0	1.0	0.0
857500	0.986365510	-178.428858452	0.026112431	76.052027702	1.0	0.0	1.0	0.0
867000	0.985510046	-178.893682133	0.025539535	78.657365441	1.0	0.0	1.0	0.0
876500	0.984441555	-179.265383535	0.027406066	75.250909911	1.0	0.0	1.0	0.0
886000	0.983318138	-179.679152188	0.027961212	72.260631026	1.0	0.0	1.0	0.0
895500	0.982699580	179.931595371	0.028288319	71.529858557	1.0	0.0	1.0	0.0
905000	0.981896280	179.568850763	0.028625900	72.646923652	1.0	0.0	1.0	0.0
914500	0.980944463	179.179592352	0.027759444	74.033563702	1.0	0.0	1.0	0.0
924000	0.980528756	178.745399835	0.028157504	71.316668302	1.0	0.0	1.0	0.0
933500	0.979405684	178.383547941	0.028339069	71.164418627	1.0	0.0	1.0	0.0
943000	0.978757242	178.023783570	0.028805740	69.476912683	1.0	0.0	1.0	0.0
952500	0.977835660	177.637984650	0.029083550	69.313518380	1.0	0.0	1.0	0.0
962000	0.976807688	177.298589700	0.029854261	70.448349730	1.0	0.0	1.0	0.0
971500	0.976598682	176.966113036	0.030002003	69.700611946	1.0	0.0	1.0	0.0
981000	0.975684807	176.573226171	0.029721577	68.483996684	1.0	0.0	1.0	0.0
990500	0.974019614	176.234072121	0.030718687	68.395415919	1.0	0.0	1.0	0.0
1000000	0.973309654	175.899848962	0.030253265	67.267966833	1.0	0.0	1.0	0.0
